"Freq [MHz]","re(Zt(1_T1,1_T1)) []","mag(Zt(1_T1,1_T1)) []","im(Zt(1_T1,1_T1)) []","ang_deg(Zt(1_T1,1_T1)) [deg]","re(Zt(2_T1,1_T1)) []","mag(Zt(2_T1,1_T1)) []","im(Zt(2_T1,1_T1)) []","ang_deg(Zt(2_T1,1_T1)) [deg]","re(Zt(2_T1,2_T1)) []","mag(Zt(2_T1,2_T1)) []","im(Zt(2_T1,2_T1)) []","ang_deg(Zt(2_T1,2_T1)) [deg]"
0.1,0.0342792746258962,1.32840122602664,1.32795886556783,88.521323405001,8.39451474684843E-06,0.0317215189390419,0.0317215178283151,89.9848377288429,0.0399096580078959,1.64542354249184,1.64493946799999,88.6101577050494
0.101546899243308,0.0342844195352959,1.34893708065996,1.34850132597508,88.5436206650973,6.71727627143241E-06,0.0322123333418699,0.0322123326414891,89.9880520427104,0.0399096042639462,1.67086241531611,1.67038571425988,88.6313239482545
0.103117727459306,0.0342897248730552,1.36979082198039,1.36936157049548,88.5655753187826,4.9879945085949E-06,0.0327107456511314,0.0327107452708268,89.9912630840724,0.0399095488616322,1.69669506065821,1.69622562083339,88.6521681605571
0.10471285480509,0.034295195642415,1.39096736487255,1.39054451553927,88.5871925133174,3.20506259815977E-06,0.0332168736555332,0.0332168735009065,89.9944715880808,0.0399094917503435,1.72292756787406,1.72246527878173,88.6726952316827
0.106332657163716,0.0343008370027029,1.41247170032533,1.41205515359736,88.6084773176171,1.36682456539462E-06,0.0337308369779215,0.0337308369502286,89.9976782882973,0.039909432877961,1.74956612064017,1.74911087346093,88.6929099776155
0.107977516232771,0.0343066542742086,1.43430889660978,1.43389855441955,88.6294347233932,-5.28426135671454E-07,0.0342527571042167,0.0342527571001406,90.0008839167973,0.0399093721908133,1.77661699841534,1.77616868598387,88.7128171416883
0.109647819614319,0.0343126529431852,1.4564841004753,1.4560798662111,88.6500696462802,-2.48244813913965E-06,0.0347827574128224,0.0347827573242362,90.004089204305,0.0399093096336374,1.80408657792507,1.80364509470515,88.7324213956574
0.111343960906236,0.0343188386670722,1.47900253836447,1.47860431684785,88.6703869269434,-4.4970537128598E-06,0.0353209632045178,0.0353209629182361,90.0072948803008,0.0399092451495174,1.83198133466917,1.83154657672903,88.7517273407635
0.113066339794964,0.0343252172798071,1.50186951764665,1.50147721511013,88.690391332175,-6.57411036423608E-06,0.0358675017328401,0.0358675011303597,90.0105016731536,0.0399091786798669,1.86030784445285,1.85987970944089,88.770739508776
0.114815362149688,0.0343317947973321,1.52509042787084,1.524703951936,88.7100875559734,-8.71554247843041E-06,0.036422502234967,0.0364225011921957,90.0137103102287,0.0399091101643631,1.88907278494173,1.88865117206259,88.7894623630244
0.116591440117983,0.0343385774233018,1.54867074203795,1.54829000169377,88.7294802206064,-1.09233330090392E-05,0.0369860959631091,0.0369860943500812,90.0169215180039,0.0399090395408932,1.91828293724104,1.91786774723207,88.8079002994146
0.11839499222293,0.0343455715549394,1.57261601789283,1.57224092347441,88.7485738776597,-1.31995252038739E-05,0.0375584162164184,0.0375584138969986,90.0201360221626,0.0399089667455327,1.9479451874995,1.94753632260755,88.8260576474301
0.120226443461741,0.0343527837890513,1.59693189923648,1.59656236240398,88.7673730090726,-1.55462244078903E-05,0.0381395983734283,0.0381395952050008,90.0233545477296,0.0399088917124581,1.97806652853825,1.97766389249682,88.843938671121
0.122086225405907,0.0343602209283005,1.62162411725851,1.62126005097647,88.7858820281559,-1.79655998810505E-05,0.038729779925027,0.0387297757581715,90.0265778191488,0.0399088143739272,2.0086540615052,2.00825755951188,88.8615475700764
0.123974776302894,0.0343678899876159,1.64669849189043,1.64633981040733,88.8041052805971,-2.0459886689209E-05,0.0393291005079821,0.0393290951861341,90.0298065603927,0.0399087346602017,2.03971499755517,2.03932453624951,88.878888480386
0.125892541179417,0.0343757982008057,1.67216093317993,1.67180755200807,88.8220470454516,-2.30313876437854E-05,0.0399377019390205,0.0399376952981168,90.0330414950634,0.0399086524995224,2.07125665955632,2.07087214699799,88.895965475585
0.127839971946302,0.0343839530274289,1.69801744268649,1.69766927858219,88.8397115361179,-2.56824752838599E-05,0.0405557282494773,0.0405557201175853,90.0362833464736,0.0399085678180216,2.10328648382325,2.10290782947049,88.9127825675881
0.129817527504985,0.0343923621598159,1.72427411489884,1.72393108584284,88.8571029013006,-2.84155939277781E-05,0.0411833257205239,0.0411833159174536,90.0395328377472,0.0399084805396875,2.13581202187715,2.13543913656558,88.9293437076085
0.131825673855641,0.0344010335303533,1.75093713867427,1.75059916385244,88.8742252259583,-3.12332617684216E-05,0.0418206429189848,0.0418206312558837,90.0427906918978,0.0399083905863002,2.16884094223346,2.16847373815523,88.9456527870648
0.133864884206999,0.0344099753189772,1.77801279870045,1.77767979848486,88.8910825322386,-3.41380730353559E-05,0.0424678307337564,0.0424678170126857,90.0460576319179,0.0399082978773895,2.20238103221753,2.20201942290073,88.9617136384736
0.135935639087853,0.0344191959609213,1.80550747698002,1.80517937291011,88.9076787803985,-3.71327001973144E-05,0.0431250424128363,0.0431250264263282,90.0493343808398,0.0399082023301406,2.23644019980865,2.23608410009707,88.9775300363311
0.138038426460288,0.0344287041546653,1.83342765433814,1.83310436910234,88.9240178697128,-4.02198962547671E-05,0.0437924336009793,0.0437924151315742,90.0526216618335,0.0399081038593689,2.27102647551296,2.27067580154613,88.9931056979804
0.140173741834677,0.0344385088701885,1.86177991195367,1.86146136937112,88.940103639368,-4.3402497058704E-05,0.0444701623779862,0.0444701411977487,90.0559201982547,0.0399080023774351,2.3061480142656,2.30580268345915,89.0084442844673
0.142342088386434,0.0344486193574213,1.89057093291407,1.89025705791671,88.9559398693442,-4.66834237158393E-05,0.0451583892976428,0.0451583651676565,90.0592307137201,0.039907897794194,2.34181309736279,2.34147302838908,89.0235494013829
0.144543977074593,0.0344590451550136,1.91980750379454,1.91949822240939,88.9715302812831,-5.00656850428045E-05,0.0458572774273192,0.0458572500971581,90.0625539321605,0.0399077900169283,2.378030134424,2.37769524719308,89.0384245996948
0.146779926762207,0.0344697960993777,1.94949651626176,1.94919175559348,88.9868785393428,-5.35523800883135E-05,0.0465669923882417,0.0465669615954181,90.0658905778728,0.0399076789502755,2.41480766538501,2.41447788102584,89.0530733765663
0.14905046433862,0.0344808823339328,1.97964496870259,1.97934465691626,89.0019882510429,-5.71467007345046E-05,0.0472877023964532,0.0472876678658413,90.0692413755846,0.0399075644961757,2.45215436252215,2.45182960336406,89.0674991761623
0.151356124843621,0.0344923143187676,2.01025996787815,2.0099640341823,89.0168629680931,-6.08519343388829E-05,0.0480195783044721,0.048019539747705,90.0726070504802,0.0399074465537908,2.49007903250825,2.4897592220628,89.0817053904455
0.153697451593527,0.0345041028404927,2.04134873060367,2.04105710523356,89.0315061872126,-6.46714664631283E-05,0.048762793643666,0.048762750758506,90.0759883282446,0.0399073250194432,2.52859061850094,2.52827568144393,89.0956953599595
0.156074996309211,0.0345162590224646,2.07291858545453,2.07263119965562,89.0459213509358,-6.86087836668816E-05,0.0495175246673532,0.0495174771370345,90.0793859350966,0.0399071997865509,2.56769820226364,2.56738806441743,89.1094723746012
0.158489319246111,0.0345287943353138,2.10497697449881,2.10469376051052,89.0601118484065,-7.26674763726301E-05,0.0502839503946479,0.0502838978871894,90.0828005978162,0.0399070707455432,2.60741100631985,2.60710559463601,89.1230396743816
0.160940989326254,0.0345417206077843,2.13753145505701,2.13725234609664,89.0740810161607,-7.68512417948937E-05,0.0510622526550614,0.0510621948225491,90.0862330437572,0.0399069377838009,2.64773839614139,2.6474376386835,89.1364004501756
0.163430584272314,0.0345550500379659,2.17058970148905,2.17031463173596,89.087832138896,-8.11638869524699E-05,0.0518526161338774,0.0518525526117153,90.0896840008655,0.0399068007855872,2.68868988237087,2.68839370829768,89.1495578444611
0.165958690743756,0.0345687952048036,2.20415950700921,2.2038884115892,89.1013684502323,-8.56093317478029E-05,0.0526552284183152,0.0526551588244425,90.093154197682,0.0399066596319641,2.73027512307925,2.72998346262801,89.1625149520463
0.168525904475075,0.034582969080037,2.23824878552941,2.23798160049932,89.1146931334578,-9.01916121207104E-05,0.0534702800444972,0.0534702039785716,90.0966443633388,0.0399065142007123,2.77250392605879,2.77221671052891,89.175274820788
0.171132830416178,0.0345975850404595,2.2728655735312,2.2726022358637,89.127809322267,-9.49148832832178E-05,0.0542979645452382,0.0542978815877827,90.1001552275521,0.0399063643662996,2.8153862511522,2.8151034128891,89.187840452297
0.173780082874938,0.0346126568806198,2.30801803196701,2.30775847953561,89.1407201014846,-9.97834230243761E-05,0.0551384784986714,0.0551383882101838,90.1036875206014,0.0399062099997385,2.85893221261837,2.85865368499761,89.2002148026359
0.17646828566195,0.0346281988258528,2.34371444819103,2.34345861975531,89.1534285077811,-0.000104801635098297,0.0559920215777304,0.0559919234977538,90.1072419733044,0.0399060509685761,2.90315208153544,2.90287779894704,89.212400783004
0.179198072237533,0.034644225545783,2.37996323792031,2.37971107311129,89.1659375303754,-0.000109974052686374,0.0568587966005038,0.0568586902466562,90.1108193169799,0.0399058871367783,2.94805628824171,2.94778618607478,89.2244012604138
0.181970085860998,0.0346607521682165,2.41677294722647,2.41652438653221,89.178250111728,-0.000115305341942711,0.0577390095814807,0.0577388944484429,90.1144202834046,0.0399057183646683,2.99365542481508,2.99338943944261,89.2362190583569
0.184784979742229,0.0346777942934674,2.45415225455848,2.45390723930988,89.1903691482238,-0.00012080030561772,0.0586328697837062,0.0586327453421653,90.1180456047591,0.0399055445088613,3.03996024759159,3.03969831635552,89.2478569574596
0.187643417195609,0.0346953680091754,2.49210997279716,2.49186844515391,89.2022974908427,-0.000126463886757809,0.0595405897718657,0.0595404554674126,90.1216960135583,0.0399053654221507,3.08698167972375,3.08672374092023,89.2593176961306
0.190546071796325,0.0347134899055126,2.53065505134168,2.53041695427843,89.2140379458229,-0.000132301172495751,0.0604623854663185,0.0604622407182982,90.125372242582,0.0399051809534871,3.13473081377928,3.1344768066442,89.2706039711962
0.193493627539095,0.0347321770909583,2.56979657822879,2.56956185552147,89.2255932753111,-0.000138317397914919,0.0613984761980993,0.0613983203984116,90.1290750247852,0.0399049909478495,3.183218914381,3.18296877907566,89.2817184385289
0.196486778999347,0.0347514472084815,2.60954378228519,2.60931237849749,89.236966198005,-0.000144517949996786,0.0623490847649101,0.0623489172767585,90.1328050931998,0.0399047952462247,3.23245742088835,3.23221109848545,89.2926637136645
0.199526231496888,0.0347713184523244,2.64990603531352,2.64967789578358,89.2481593897836,-0.000150908371652415,0.0633144374881229,0.0633142576447105,90.1365631808252,0.0399045936854861,3.28245795012154,3.28221538259129,89.3034423724118
0.202612701262114,0.0347918095852076,2.69089285431263,2.69066792513989,89.259175484331,-0.000157494365836271,0.064294764270815,0.0642945713739846,90.1403500205065,0.0399043860983417,3.3332322991287,3.33299342932519,89.3140569514518
0.205746915604784,0.0348129399561827,2.73251390373264,2.73229213176479,89.2700170737471,-0.000164281799737586,0.06529029865686,0.0652900919756761,90.144166344795,0.0399041723132723,3.38479244799702,3.38455721964478,89.3245099489289
0.208929613085404,0.0348347295189609,2.77477899776526,2.77456033058546,89.280686709151,-0.00017127670905571,0.0663012778910962,0.0663010566603678,90.1480128857984,0.0399039521544393,3.43715056270842,3.4369189203892,89.3348038250327
0.212161543689268,0.0348571988508901,2.81769810267007,2.81748248858423,89.2911869012744,-0.000178485302367666,0.0673279429805995,0.0673277063993398,90.1518903750241,0.0399037254416272,3.49031899804061,3.49009088718032,89.3449410025717
0.215443469003188,0.0348803691724629,2.86128133913724,2.86106872716148,89.3015201210458,-0.00018591396554875,0.0683705387570788,0.068370285986901,90.1557995431847,0.0399034919901968,3.54431030051422,3.5440856673701,89.3549238675374
0.218776162394955,0.0349042623674779,2.90553898468735,2.90532932453562,89.3116888001657,-0.000193569266306623,0.0694293139404265,0.0694290441038723,90.1597411200164,0.039903251610986,3.5991372113868,3.59891600303481,89.3647547696616
0.222160409195581,0.0349289010038262,2.95048147610878,2.95027471818061,89.3216953316729,-0.000201457958767637,0.0705045212034442,0.0705042333822428,90.1637158340579,0.0399030041102671,3.65481266969452,3.65459483401684,89.3744360229638
0.225597006884358,0.0349543083549442,2.99611941193346,2.99591550730189,89.3315420705011,-0.000209586988157842,0.0715964172377719,0.0715961104710271,90.1677244124268,0.039902749289703,3.71134981534227,3.71113530101507,89.383969906291
0.229086765276777,0.034980508421913,3.04246355495149,3.04226245535105,89.341231334028,-0.000217963495542797,0.0727052628210477,0.0727049361033502,90.1717675805638,0.0399024869462571,3.76876199224306,3.76855074872442,89.3933586638499
0.232630506715363,0.0350075259563028,3.08952483476519,3.08932649258011,89.3507654026147,-0.000226594822665062,0.0738313228853269,0.0738309751647893,90.1758460619778,0.0399022168721872,3.82706275150753,3.82685472902553,89.4026045057298
0.236229066263446,0.0350353864836709,3.1373143503834,3.13711871863587,89.3601465201374,-0.000235488516828154,0.0749748665867865,0.0749744967629986,90.1799605779492,0.0399019388549677,3.88626585468439,3.88606100422541,89.4117096084193
0.239883291901949,0.0350641163278666,3.18584337285652,3.18565040519514,89.3693768945102,-0.000244652335869213,0.0761361673767469,0.0761357742986474,90.1841118472304,0.0399016526772559,3.94638527705269,3.94618355034987,89.4206761153143
0.243594044729203,0.0350937426360761,3.23512334795304,3.23493299864134,89.3784586981991,-0.000254094253183198,0.0773155030740386,0.0773150855377019,90.188300585711,0.0399013581168708,4.00743521096679,4.00723656048864,89.4295061372176
0.247362199163862,0.0351242934046208,3.2851658988782,3.28497812278333,89.3873940687296,-0.000263822462830477,0.0785131559387498,0.078512712685084,90.192527506077,0.039901054946756,4.06943006925488,4.06923444819415,89.4382017528331
0.251188643150958,0.0351557975056437,3.3359828290355,3.33579758161694,89.3961851091841,-0.000273845384674031,0.0797294127473776,0.0797289424597304,90.1967933174236,0.0399007429349497,4.1323844886721,4.13219185093468,89.4467650092502
0.255074278371136,0.0351882847145872,3.38758612483167,3.38740336213018,89.4048338886922,-0.000284171669607369,0.0809645648694267,0.0809640661710972,90.2010987248701,0.0399004218445913,4.19631333340897,4.19612363360311,89.4551979224227
0.259020020453132,0.03522178573856,3.43998795852592,3.43980763715251,89.4133424429136,-0.000294810204804016,0.0822189083454794,0.0822183797971323,90.2054444291265,0.0399000914339002,4.26123169865636,4.26104489208191,89.4635024776392
0.263026799189538,0.0352563322455652,3.4932006911242,3.49302276824918,89.4217127745128,-0.000305770119030684,0.0834927439667772,0.083492184063756,90.209831126048,0.0398997514561817,4.32715491422772,4.32697095686565,89.4716806299875
0.267095558755899,0.035291956894725,3.547236875319,3.54706130866122,89.4299468536257,-0.000317060787995348,0.0847863773563481,0.0847857845258849,90.2142595061557,0.0398994016598439,4.39409854823975,4.39391739674176,89.4797343048109
0.271227257933203,0.0353286933673756,3.60210925847577,3.60193600629187,89.4380466183194,-0.000328691839725317,0.0861001190517132,0.0860994916500306,90.2187302541274,0.0398990417884441,4.46207841085234,4.46190002253063,89.487665398158
0.275422870333817,0.0353665763992209,3.65783078566641,3.6576598067402,89.4460139750441,-0.000340673159985963,0.0874342845892154,0.0874336208985192,90.223244048266,0.0398986715806872,4.53111055806904,4.5309348908863,89.4954757772264
0.279683384630908,0.0354056418134337,3.71441460275084,3.71424585638275,89.4538507990778,-0.000353014897706968,0.0887891945900025,0.0887884928153605,90.2278015599278,0.0398982907705055,4.60121129559894,4.60103830815837,89.5031672807982
0.284009804791421,0.0354459265548975,3.77187405950726,3.7717075055039,89.4615589349632,-0.000365727470422983,0.0901651748477071,0.0901644331138114,90.2324034529203,0.0398978990871197,4.672397182781,4.67222683431661,89.5107417196705
0.288403150312661,0.0354874687254185,3.83022271281209,3.83005831147583,89.4691401969383,-0.000378821569725442,0.091562556417865,0.0915617727656745,90.2370503828711,0.0398974962551168,4.74468503657219,4.74451728693917,89.5182008770778
0.292864456462524,0.035530307620167,3.88947432987023,3.8893120419889,89.4765963693593,-0.000392308166699687,0.092981675709109,0.0929808480923693,90.2417429965551,0.0398970819945472,4.81809193560022,4.81792674526546,89.5255465091092
0.297394774523461,0.0355744837651857,3.94964289149659,3.94948267833325,89.4839292071166,-0.000406198517349952,0.0944228745761864,0.094422000857823,90.2464819311888,0.0398966560210475,4.8926352242823,4.89247255431508,89.5327803451187
0.301995172040202,0.035620038956139,4.01074259544971,4.01058441873244,89.4911404360439,-0.000420504167993955,0.0958865004148365,0.0958855783632197,90.2512678136842,0.0398962180459849,4.9683325170109,4.96817232907369,89.5399040881289
0.306666733071318,0.0356670162982872,4.07278785981838,4.07263168173018,89.4982317533206,-0.000435236960620547,0.0973729062585812,0.097371933543658,90.2561012598651,0.0398957677765961,5.04520170240779,5.04504395874724,89.5469194152294
0.311410558444676,0.0357154602476975,4.13579332646203,4.13563910963071,89.5052048278674,-0.000450409038189012,0.0988824508774659,0.0988814250667575,90.2609828736395,0.039895304916206,5.12326094764764,5.12310561108563,89.5538279779681
0.316227766016838,0.0357654166538373,4.19977386450589,4.19962157199411,89.5120613007348,-0.000466032849869439,0.100415498878806,0.100414417433267,90.2659132461331,0.0398948291643937,5.20252870285227,5.20237573677715,89.5606314027377
0.321119490936482,0.0358169328033998,4.26474457389187,4.26459416918711,89.5188027854861,-0.000482121156183163,0.101972420809976,0.101971281079712,90.2708929547704,0.0398943402172674,5.28302370555695,5.28287307391493,89.5673312911547
0.326086885911893,0.0358700574656735,4.33072078898595,4.33057223599059,89.5254308685725,-0.000498687034064537,0.103553593263307,0.103552392483151,90.27592256232,0.0398938377677122,5.36476498525011,5.36461665253667,89.5739292204341
0.331131121482591,0.0359248409392444,4.39771808224321,4.39757134526461,89.5319471097033,-0.000515743881783577,0.105159398983122,0.105158134268062,90.281002615881,0.0398933215056945,5.44777186798753,5.44762579923911,89.5804267437574
0.336253386295163,0.0359813351002193,4.46575226793128,4.46560731167193,89.5383530422082,-0.000533305423748093,0.106790226974978,0.106788895315441,90.2861336458282,0.0398927911186128,5.53206398108274,5.53192014186844,89.5868253906352
0.34145488738336,0.0360395934520123,4.53483940591341,4.53469619546105,89.5446501733948,-0.000551385715136468,0.108446472617162,0.108445070874143,90.2913161646997,0.0398922462916458,5.6176612578747,5.61751961428815,89.5931266672641
0.346736850452532,0.0360996711766783,4.60499580549201,4.6048543063098,89.5508399848989,-0.000569999146356384,0.110128537774488,0.110127062674531,90.296550666034,0.039891686708185,5.70458394257439,5.70444446122575,89.5993320568784
0.352100520168452,0.0361616251879139,4.67623802931371,4.67609820723042,89.5569239330289,-0.000589160447295502,0.111836830914464,0.111835279044484,90.3018376231495,0.039891112050271,5.79285259519169,5.79271524319972,89.6054430200959
0.357547160450621,0.0362255141857323,4.74858289733714,4.7484447185373,89.562903449105,-0.000608884691343821,0.113571767225867,0.113570135027828,90.3071774878675,0.0398905219991468,5.88248809654403,5.88235284152837,89.6114609952585
