"Freq [MHz]","re(Zt(1_T1,1_T1)) []","mag(Zt(1_T1,1_T1)) []","im(Zt(1_T1,1_T1)) []","ang_deg(Zt(1_T1,1_T1)) [deg]","re(Zt(2_T1,1_T1)) []","mag(Zt(2_T1,1_T1)) []","im(Zt(2_T1,1_T1)) []","ang_deg(Zt(2_T1,1_T1)) [deg]","re(Zt(2_T1,2_T1)) []","mag(Zt(2_T1,2_T1)) []","im(Zt(2_T1,2_T1)) []","ang_deg(Zt(2_T1,2_T1)) [deg]"
0.1,0.0278565543392513,1.14689521403599,1.14655686486061,88.6082251040916,-3.71066703397793E-05,0.0318015887992804,-0.0318015671509052,-90.0668537694169,0.066447484269747,1.99717936716239,1.99607368512622,88.0933794921905
0.100964027551345,0.0278572216130741,1.15794524898177,1.1576101134853,88.6214760765259,-3.67792780543151E-05,0.0321082004458795,-0.0321081793809222,-90.0656311421265,0.0664476084540558,2.01641215984623,2.01531702560824,88.1115681674289
0.101937348593887,0.0278579018370374,1.16910187473968,1.16876992210832,88.6346003531677,-3.64455864503694E-05,0.032417768984122,-0.032417748497191,-90.0644146340359,0.0664477350511078,2.03583058291483,2.03474589588919,88.1295835199769
0.102920052719443,0.0278585952629048,1.18036611839168,1.18003731810355,88.647599136512,-3.61054751786113E-05,0.0327303229501093,-0.0327303030357667,-90.0632041354361,0.066447864107919,2.05543642451706,2.05436208507337,88.1474271938442
0.103912230383517,0.0278593021473628,1.19173901692975,1.19141333875215,88.6604736176582,-3.57588216347819E-05,0.0330458911559376,-0.0330458718086957,-90.0619995372558,0.0664479956724476,2.07523149007418,2.07416739952845,88.1651008176409
0.104913972913631,0.0278600227521161,1.20322161735151,1.20289903133814,88.6732249764146,-3.54055008939815E-05,0.0333645026923856,-0.033364483906704,-90.0608007310105,0.0664481297935594,2.09521760244665,2.09416366305244,88.1826060047171
0.105925372517729,0.0278607573439664,1.21481497675667,1.2144954532449,88.685854381404,-3.50453856971989E-05,0.0336861869316265,-0.0336861687019083,-90.059607608844,0.0664482665210442,2.11539660210257,2.11435271704213,88.1999443533006
0.106946522292664,0.0278615061949312,1.22652016244452,1.22620367205268,88.6983629901661,-3.46783463758729E-05,0.0340109735299703,-0.0340109558505584,-90.0584200634644,0.0664484059057685,2.13577034728772,2.13473642066324,88.2171174466294
0.107977516232771,0.0278622695823194,1.23833825201225,1.23802476563697,88.7107519492609,-3.43042508392305E-05,0.034338892430629,-0.0343388752958027,-90.057237988189,0.0664485479994869,2.15634071419734,2.15531665102227,88.2341268530928
0.109018449238513,0.0278630477888824,1.2502703334543,1.24995982226784,88.7230223943685,-3.39229645179527E-05,0.0346699738665128,-0.0346699572704836,-90.0560612769155,0.0664486928550589,2.17710959714948,2.17609530333996,88.2509741263604
0.110069417125221,0.0278638411028638,1.26231750526267,1.26200994071028,88.7351754503923,-3.35343503086931E-05,0.0350042483630529,-0.0350042322999611,-90.0548898240972,0.0664488405263367,2.1980789087601,2.19707429112643,88.2676608055183
0.111130516631913,0.0278646498181598,1.27448087652813,1.27417623032546,88.7472122315561,-3.31382685510673E-05,0.0353417467410516,-0.035341731204962,-90.053723524773,0.0664489910682212,2.21925058011986,2.21825554635807,88.2841884152004
0.112201845430196,0.0278654742343947,1.28676156704246,1.28645981117299,88.759133841505,-3.27345769548246E-05,0.0356825001195624,-0.0356824851044604,-90.0525622745169,0.0664491445366988,2.24062656097263,2.23964101965614,88.3005584657193
0.113283502133261,0.0278663146570588,1.29916070740173,1.29886181411418,88.7709413734021,-3.23231305751086E-05,0.0360265399187971,-0.0360265254185844,-90.0514059694671,0.0664493009889067,2.26220881989575,2.26123268046705,88.3167724531948
0.114375586304954,0.0278671713975976,1.31167943911046,1.31138338091628,88.7826359100268,-3.19037817581801E-05,0.0363738978630626,-0.0363738838715529,-90.0502545063086,0.0664494604829958,2.28399934448201,2.2830325172445,88.3328318596867
0.115478198468946,0.0278680447735395,1.3243189146869,1.32402566435775,88.7942185238707,-3.1476380075068E-05,0.0367246059837282,-0.0367245924946429,-90.0491077822389,0.0664496230783654,2.30600014152348,2.30504253763332,88.3487381533177
0.116591440117983,0.0278689351086366,1.33708029776924,1.33678982833451,88.8056902772322,-3.10407723019579E-05,0.0370786966222196,-0.0370786836291831,-90.0479656950078,0.0664497888355478,2.32821323719704,2.32726476865509,88.3644927884034
0.11771541372323,0.0278698427329618,1.34996476322295,1.34967704796726,88.8170522223121,-3.0596802355967E-05,0.0374362024330449,-0.0374361899295802,-90.0468281428892,0.0664499578162482,2.35064067725175,2.34970125689561,88.3800972055777
0.118850222743702,0.027870767983042,1.36297349724902,1.36268850970985,88.828305401307,-3.0144311224184E-05,0.0377971563868521,-0.0377971443663759,-90.0456950246439,0.0664501300833712,2.37328452719812,2.3723540686942,88.3955528319174
0.119995971635786,0.0278717112019765,1.37610769749338,1.37582541145859,88.8394508465027,-2.968313695335E-05,0.0381615917735127,-0.0381615802293303,-90.0445662395773,0.066450305701108,2.3961468724991,2.3952252903348,88.4108610810645
0.121152765862859,0.0278726727395918,1.38936857315733,1.3890889626628,88.850489580365,-2.92131145525534E-05,0.0385295422052414,-0.0385295311305422,-90.0434416874653,0.0664504847348775,2.41922981876302,2.41831702823899,88.4260233533508
0.122320711904993,0.027873652952549,1.40275734510901,1.40248038443622,88.8614226156325,-2.87340759809608E-05,0.0389010416197422,-0.038901031007594,-90.0423212686107,0.0664506672514152,2.44253549193839,2.4416314091608,88.4410410359183
0.123499917268758,0.0278746522044844,1.41627524599596,1.41600090966969,88.8722509554062,-2.82458500579619E-05,0.0392761242833903,-0.0392761141267345,-90.041204883784,0.066450853318745,2.46606603851061,2.46517058038356,88.4559155028406
0.124690490497117,0.0278756708661537,1.42992352035883,1.42965178314482,88.8829755932395,-2.77482624310085E-05,0.0396548247944426,-0.0396548150860885,-90.0400924342524,0.0664510430062207,2.48982362570056,2.48893670991853,88.4706481152429
0.125892541179417,0.0278767093155704,1.44370342474612,1.44343426164873,88.8935975132265,-2.72411355007405E-05,0.0400371780862828,-0.040037168818902,-90.0389838217468,0.0664512363845897,2.51381044166518,2.51293198670554,88.4852402214193
0.127106179961474,0.0278777679381461,1.45761622783003,1.45734961408999,88.9041176900907,-2.67242883915391E-05,0.0404232194306959,-0.0404232105968168,-90.0378789484962,0.0664514335259737,2.53802869569999,2.5371586208156,88.4996931569515
0.128331518555765,0.0278788471268479,1.47166321052351,1.47139912161563,88.9145370892715,-2.61975368574253E-05,0.0408129844411805,-0.0408129760331822,-90.0367777171701,0.0664516345039515,2.56248061844355,2.56161884365543,88.5140082448248
0.129568669751702,0.0278799472823265,1.48584566609836,1.4855840777293,88.9248566670117,-2.56606932557591E-05,0.0412065090762884,-0.0412065010863948,-90.0356800309203,0.0664518393935068,2.58716846208401,2.58631490817405,88.5281867955448
0.130817747426019,0.0278810688130922,1.50016490030449,1.49990578841053,88.9350773704419,-2.51135664613366E-05,0.0416038296430034,-0.0416038220632772,-90.0345857933389,0.0664520482711186,2.61209450056755,2.61124908907132,88.5422301072515
0.132078866553255,0.0278822121356525,1.5146222314904,1.51436557223524,88.9452001376666,-2.45559618287318E-05,0.0420049828001499,-0.0420049756224858,-90.0334949084851,0.0664522612147896,2.63726102980897,2.63642368300858,88.5561394658326
0.133352143216332,0.0278833776746722,1.52921899072471,1.5289647604973,88.9552258978478,-2.39876811083224E-05,0.0424100055618384,-0.042409998777957,-90.0324072808501,0.0664524783040557,2.6626703679043,2.66184100882132,88.5699161450369
0.134637694617247,0.0278845658631541,1.54395652191902,1.54370469733136,88.9651555712878,-2.34085224022815E-05,0.0428189353009442,-0.0428189289023852,-90.0313228153776,0.0664526996199957,2.68832485534546,2.68750340773392,88.5835614065865
0.135935639087853,0.0278857771425864,1.55883618195178,1.55858673983681,88.9749900695127,-2.28182800876284E-05,0.0432318097526222,-0.0432318037307376,-90.0302414174413,0.0664529252453366,2.71422685523705,2.7134132435765,88.5970765002862
0.137246096100756,0.0278870119631024,1.57385934079352,1.57361225820302,88.9847302953543,-2.22167447653508E-05,0.0436486670178559,-0.0436486613638026,-90.0291629928588,0.0664531552644022,2.74037875351523,2.73957290300388,88.6104626641353
0.138569186280313,0.0278882707836846,1.58902738163323,1.58878263583565,88.99437714303,-2.1603703170763E-05,0.0440695455670454,-0.0440695402717784,-90.0280874478552,0.0664533897632154,2.76678295916884,2.76598479571672,88.6237211244344
0.139905031413729,0.0278895540722998,1.60434170100592,1.60409926948435,89.0039314982248,-2.0978938138194E-05,0.0444944842436258,-0.0444944792978906,-90.0270146891003,0.0664536288294581,2.79344190446252,2.79265135468475,88.6368530958962
0.141253754462275,0.0278908623061098,1.61980370892149,1.61956356937159,89.0133942381699,-2.03422285087247E-05,0.0449235222677289,-0.044923517662054,-90.0259446236723,0.0664538725525993,2.82035804516215,2.81957503637226,88.6498597817495
0.142615479572601,0.0278921959716489,1.63541482899482,1.63517695932276,89.0227662317214,-1.96933490698756E-05,0.0453566992398775,-0.0453566949645662,-90.0248771590646,0.0664541210238241,2.84753386076245,2.84675832096574,88.6627423738483
0.143990332088163,0.0278935555649822,1.65117649857711,1.65094087689757,89.0320483394398,-1.90320704941883E-05,0.0457940551447181,-0.045794051189841,-90.0238122031923,0.0664543743361694,2.87497185471681,2.87420371260379,88.6755020527745
0.145378438560766,0.0278949415919413,1.66709016888851,1.66685677352264,89.0412414136657,-1.83581592562526E-05,0.0462356303547928,-0.0462356267101791,-90.0227496643731,0.0664546325844872,2.90267455466934,2.90191373960925,88.6881399879444
0.146779926762207,0.0278963545682814,1.68315730515202,1.68292611462548,89.0503462985979,-1.76713775611312E-05,0.0466814656343484,-0.0466814622895777,-90.0216894513242,0.066454895865522,2.9306445126893,2.92989095472364,88.7006573377105
0.148194925696038,0.0278977950198857,1.69937938672871,1.69915037976969,89.0593638303693,-1.69714832891662E-05,0.0471316021431832,-0.0471315990875767,-90.0206314731803,0.066455164277911,2.95888430550766,2.95813793534384,88.7130552494654
0.149623565609443,0.0278992634829838,1.71575790725423,1.7155310627915,89.0682948371215,-1.62582298944797E-05,0.0475860814405359,-0.0475860786631477,-90.0195756394566,0.0664554379222885,2.98739653475616,2.98665728376117,88.7253348597422
0.151065978005223,0.0279007605043426,1.73229437477667,1.73206967193764,89.0771401390801,-1.55313663569711E-05,0.0480449454890107,-0.0480449429786182,-90.0185218600785,0.0664557169012619,3.01618382720857,3.01545162740272,88.7374972943161
0.152522295653902,0.0279022866414769,1.7489903118957,1.74876773000453,89.0859005486285,-1.47906370948432E-05,0.0485082366585442,-0.048508234403639,-90.0174700453645,0.0664560013194754,3.04524883502444,3.04452361907513,88.7495436683039
0.153992652605949,0.027903842462876,1.76584725590314,1.76562677447881,89.0945768703813,-1.40357818837066E-05,0.0489759977304134,-0.0489759957191917,-90.0164201060188,0.0664562912836695,3.0745942359951,3.07387593721073,88.7614750862631
0.155477184204117,0.0279054285482045,1.78286675892485,1.78264835767931,89.1031699012567,-1.32665357832434E-05,0.0494482719012829,-0.0494482701216356,-90.0153719531347,0.0664565869026572,3.10422273379224,3.10351128611607,88.7732926422907
0.1569760270959,0.0279070454885442,1.80005038806397,1.79983404690025,89.1116804305483,-1.2482629062641E-05,0.0499251027872944,-0.0499251012267965,-90.0143254981971,0.0664568882874612,3.13413705821878,3.13343239622293,88.7849974201191
0.158489319246111,0.0279086938866084,1.81739972554562,1.81718542455601,89.120109239997,-1.16837871145698E-05,0.0504065344281976,-0.0504065330740985,-90.0132806530737,0.0664571955513139,3.16433996546231,3.1636420243418,88.7965904932132
0.160017199949583,0.0279103743569761,1.83491636886292,1.83470408832715,89.1284571038611,-1.0869730375952E-05,0.0508926112915245,-0.0508926101307368,-90.0122373300155,0.0664575088096622,3.19483423835099,3.19414295391777,88.8080729248667
0.161559809843987,0.0279120875263302,1.85260193092453,1.85239165130791,89.1367247889864,-1.00401742523159E-05,0.0513833782768042,-0.0513833772958926,-90.011195441662,0.06645782818028,3.22562268661193,3.22493799528907,88.8194457682956
0.163117290922784,0.0279138340337244,1.87045804020351,1.87024974215518,89.1449130548748,-9.19482901746154E-06,0.0518788807198245,-0.051878879904995,-90.0101549010213,0.0664581537832973,3.25670814713215,3.25602998594802,88.8307100667323
0.164689786548287,0.0279156145307713,1.8884863408877,1.88828000523884,89.153022653755,-8.33339975696721E-06,0.0523791643969322,-0.0523791637340202,-90.0091156214991,0.0664584857411855,3.28809348422215,3.28742179080464,88.8418668535201
0.166277441464863,0.0279174296819566,1.90668849303155,1.90648410079362,89.161054330648,-7.4555862466668E-06,0.0528842755293845,-0.052884275003843,-90.0080775168586,0.066458824178927,3.31978158988194,3.31911630245279,88.8529171522029
0.167880401812256,0.0279192801648774,1.92506617270939,1.9248637050724,89.1690088234356,-6.56108291095731E-06,0.0533942607877363,-0.0533942603846236,-90.007040501268,0.0664591692239529,3.35177538406984,3.35111644143897,88.8638619766187
0.169498815139035,0.027921166670472,1.94362107217023,1.94342051050099,89.1768868629282,-5.64957869213618E-06,0.0539091672962821,-0.0539091670002495,-90.0060044892532,0.0664595210062368,3.38407781497384,3.38342515653379,88.8747023309896
0.171132830416178,0.0279230899033292,1.96235489999407,1.96215622583447,89.1846891729292,-4.72075699094906E-06,0.0544290426375365,-0.0544290424328154,-90.0049693957292,0.0664598796583677,3.41669185928563,3.41604542500601,88.8854392100108
0.172782598050786,0.0279250505819611,1.98126938124963,1.98107257631498,89.1924164703008,-3.77429557113837E-06,0.0549539348567642,-0.0549539347271528,-90.0039351359934,0.0664602453155901,3.44962052247743,3.4489802528994,88.8960735989404
0.174448269899925,0.0279270494390522,2.00036625765377,2.0001713038311,89.2000694650302,-2.8098664536116E-06,0.0554838924665576,-0.0554838923954077,-90.0029016257097,0.066460618115803,3.48286683908139,3.48223267531227,88.9066064736879
0.176129999284605,0.0279290872217637,2.01964728773233,2.0194541670787,89.2076488602926,-1.82713585025345E-06,0.0560189644514584,-0.0560189644216611,-90.0018687809362,0.0664609981997236,3.51643387297192,3.51580575667977,88.9170388009003
0.177827941003892,0.0279311646920321,2.03911424698259,2.03892294172348,89.2151553525153,-8.25764054586791E-07,0.0565592002726301,-0.056559200266602,-90.000836518108,0.0664613857108502,3.55032471765065,3.54970259105894,88.9273715380497
0.179542251349159,0.0279332826268532,2.05876892803731,2.05857942056496,89.2225896314406,1.94594646304194E-07,0.057104649872578,-0.0571046498722464,-89.9998047540441,0.0664617807955679,3.58454249653433,3.58392630241667,88.9376056335189
0.18127308811847,0.0279354418185873,2.07861314083031,2.07842541370213,89.2299523801889,1.23429207082234E-06,0.0576553636799186,-0.0576553636667067,-89.9987734059446,0.0664621836032111,3.6190903632455,3.6184800449204,88.947742026686
0.183020610631106,0.0279376430752789,2.09864871276378,2.0984627487007,89.2372442753197,2.29368622845458E-06,0.0582113926141967,-0.058211392569008,-89.9977423914023,0.0664625942860535,3.65397150190604,3.65336700323171,88.95778164801
0.184784979742229,0.0279398872209556,2.11887748887707,2.11869327076198,89.2444659868938,3.37314142370591E-06,0.0587727880907555,-0.0587727879939583,-89.996711628397,0.0664630129994613,3.68918912743368,3.68859039280291,88.9677254191129
0.186566357857691,0.0279421750959744,2.13930133201724,2.13911884289341,89.2516181785332,4.47302835305861E-06,0.0593396020256552,-0.0593396018570664,-89.9956810352991,0.0664634399019541,3.72474648584137,3.72415346017642,88.9775742528623
0.18836490894898,0.0279445075573266,2.15992212301116,2.15974134608069,89.2587015074821,5.59372420437899E-06,0.0599118868406446,-0.0599118865795132,-89.9946505308706,0.0664638751551924,3.76064685453963,3.76005948328723,88.9873290534548
0.190180798568314,0.0279468854789944,2.18074176083944,2.18056267946168,89.2657166246659,6.7356127436478E-06,0.0604896954681818,-0.0604896950931718,-89.993620034281,0.0664643189240919,3.79689354264198,3.79631177176826,88.9969907164964
0.19201419386388,0.027949309752275,2.20176216281187,2.20158476050193,89.2726641747504,7.89908443582914E-06,0.0610730813565121,-0.0610730808456853,-89.99258946509,0.0664647713768435,3.83348989127323,3.83291366725887,89.0065601290841
0.193865263595221,0.0279517812861639,2.2229852647447,2.22280952517192,89.2795447962002,9.08453653147822E-06,0.0616620984747946,-0.0616620978055926,-89.9915587432662,0.0664652326851439,3.870439273881,3.86986854371625,89.0160381698825
0.195734178148766,0.0279543010076611,2.24441302113961,2.24423892812601,89.2863591213371,1.02923731639241E-05,0.0622568013182834,-0.0622568004675093,-89.9905277891947,0.0664657030240415,3.90774509655021,3.90717980773009,89.0254257092074
0.197621109553519,0.0279568698621935,2.26604740536437,2.26587494288323,89.2931077763967,1.15230054711004E-05,0.0628572449135666,-0.0628572438573665,-89.989496523664,0.066466182572145,3.94541079832075,3.94485089884019,89.0347236091009
0.199526231496888,0.0279594888139566,2.28789040983535,2.28771956200969,89.2997913815854,1.27768516776957E-05,0.0634634848238553,-0.0634634835376989,-89.988464867891,0.0664666715116608,3.98343985150829,3.98288528985741,89.0439327234104
0.201449719340678,0.0279621588463055,2.30994404620174,2.30977479730287,89.3064105511372,1.40543372236202E-05,0.064075577154334,-0.0640755756129948,-89.9874327435041,0.0664671700285067,4.02183576202827,4.02128648718764,89.0530538978649
0.203391750137229,0.0279648809621104,2.33221034553159,2.33204267997765,89.3129658933695,1.53558948407985E-05,0.06469357855756,-0.0646935767350955,-89.9864000725744,0.0664676783123274,4.0606020697231,4.06005803115907,89.0620879701517
0.205352502645715,0.0279676561842332,2.35469135849965,2.35452526085419,89.3194580107369,1.66819646797061E-05,0.0653175462389273,-0.0653175441086578,-89.9853667776032,0.0664681965565998,4.09974234869265,4.09920349635273,89.0710357699921
0.207332157348596,0.0279704855558455,2.37738915557706,2.37722461054759,89.3258874998877,1.80329944078293E-05,0.0659475379621834,-0.0659475354966714,-89.9843327815358,0.0664687249587175,4.13926020762801,4.13872649193626,89.0798981192155
0.209330896468234,0.0279733701409016,2.40030582722287,2.4001428196595,89.332254951717,1.94094393196213E-05,0.066583612055007,-0.0665836092260351,-89.9832980077656,0.0664692637200811,4.17915929014855,4.17863066200107,89.0886758318345
0.211348903983665,0.0279763110245393,2.42344348407746,2.42328199897143,89.3385609514204,2.08117624476513E-05,0.0672258274146435,-0.0672258241931922,-89.9822623801389,0.0664698130461698,4.2194432751424,4.21891968590278,89.0973697141173
0.213386365647533,0.0279793093135081,2.44680425715777,2.44664427964012,89.3448060785478,2.22404346541925E-05,0.0678742435135991,-0.067874239869824,-89.981225822977,0.0664703731466493,4.26011587711022,4.25959727860514,89.1059805646614
0.215443469003188,0.0279823661366356,2.47039029805455,2.47023181339474,89.3509909070549,2.36959347670107E-05,0.0685289204054002,-0.0685289163086091,-89.9801882610613,0.066470944235407,4.30118084651254,4.30066719102732,89.1145091744654
0.217520403401952,0.0279854826452446,2.49420377913142,2.49404677273594,89.3571160053564,2.51787496610742E-05,0.069189918730407,-0.0691899141490354,-89.9791496196656,0.0664715265306894,4.34264197012043,4.34213321039464,89.1229563270008
0.219617360020544,0.0279886600136412,2.51824689372593,2.51809135113699,89.3631819363768,2.66893743947211E-05,0.069857299721697,-0.069857294623284,-89.978109824543,0.0664721202551905,4.38450307136976,4.38399916059295,89.1313227982821
