"Freq [MHz]","re(Zt(1_T1,1_T1)) []","mag(Zt(1_T1,1_T1)) []","im(Zt(1_T1,1_T1)) []","ang_deg(Zt(1_T1,1_T1)) [deg]","re(Zt(2_T1,1_T1)) []","mag(Zt(2_T1,1_T1)) []","im(Zt(2_T1,1_T1)) []","ang_deg(Zt(2_T1,1_T1)) [deg]","re(Zt(2_T1,2_T1)) []","mag(Zt(2_T1,2_T1)) []","im(Zt(2_T1,2_T1)) []","ang_deg(Zt(2_T1,2_T1)) [deg]"
0.1,0.0285252479887329,1.17312040821853,1.172773551205,88.6066754905671,3.9409289572268E-05,0.0331445425210513,0.0331445190919657,89.9318745613488,0.0665961013301689,2.00472923549986,2.003622785595,88.0963126550651
0.10115794542599,0.0285389419452877,1.1866815644998,1.18633834310299,88.621939838701,3.9500816531997E-05,0.033528333543105,0.0335283102745008,89.9324979693591,0.0666067252596213,2.02790464268233,2.02681049532578,88.1177760207661
0.102329299228075,0.0285525981460286,1.20039969948006,1.20006007668405,88.6370392553142,3.95944445557864E-05,0.0339165681460359,0.0339165450346089,89.9331124814653,0.0666172860195126,2.05134863539483,2.05026665610589,88.1389996428613
0.103514216667934,0.0285662131097639,1.21427663309928,1.21394057233437,88.6519756601925,3.96902066582929E-05,0.0343092977637479,0.0343092748062242,89.9337182051232,0.0666277814585986,2.07506432457328,2.07399438038165,88.159986227611
0.10471285480509,0.0285797833968538,1.22831420647417,1.22798167160885,88.6667509453158,3.97881357491224E-05,0.0347065744253603,0.034706551618496,89.9343152474648,0.0666382094887174,2.09905485727515,2.09799681670076,88.1807384481389
0.105925372517729,0.028593305612498,1.24251428214042,1.24218523747349,88.6813669752138,3.98882646001332E-05,0.0351084507621085,0.0351084281026899,89.9349037153232,0.0666485680861805,2.12332341709513,2.12227715012828,88.201258944867
0.107151930523761,0.0286067764099834,1.25687874429773,1.25655315455053,88.6958255873235,3.99906258118562E-05,0.0355149800143259,0.0355149574991695,89.9354837152554,0.0666588552929695,2.14787322458571,2.14683860266748,88.2215503259508
0.10839269140212,0.028620192493809,1.27140949905749,1.27108732936617,88.7101285923529,4.00952517783528E-05,0.0359262160385076,0.0359261936644603,89.9360553535654,0.0666690692179265,2.17270753768263,2.17168443368565,88.2416151677099
0.109647819614319,0.0286335506226811,1.28610847469325,1.28578969060128,88.7242777746496,4.02021746505156E-05,0.0363422133144572,0.0363421910783962,89.9366187363281,0.0666792080376687,2.19782965213533,2.1968179403448,88.2614560150595
0.11091748152624,0.0286468476124489,1.30097762189409,1.30066218934474,88.7382748925703,4.03114262977046E-05,0.0367630269525173,0.0367630048513506,89.9371739694112,0.0666892699975392,2.22324290194243,2.22224245803751,88.281075381936
0.112201845430196,0.028660080338846,1.31601891402071,1.31570679934978,88.7521216788587,4.04230382677192E-05,0.0371887127008855,0.0371886907315514,89.9377211584994,0.0666992534123342,2.24895065979239,2.24796136082782,88.3004757517222
0.113501081567232,0.0286732457401673,1.33123434736458,1.33092551729311,88.7658198410223,4.05370417450011E-05,0.0376193269530154,0.0376193051124834,89.938260409116,0.0667091566669865,2.27495633750923,2.27397806189729,88.319659577668
0.114815362149688,0.0286863408197939,1.34662594140988,1.34632036303712,88.7793710617147,4.06534675070377E-05,0.0380549267551064,0.0380549050403767,89.9387918266469,0.0667189782170253,2.30126338650362,2.30029601399642,88.3386292833102
0.116144861384034,0.0286993626485663,1.36219573909851,1.36189337989495,88.79277699912,4.07723458789032E-05,0.0384955698136797,0.038495548221784,89.9393155163625,0.0667287165890743,2.32787529822924,2.32691870990119,88.3573872628853
0.117489755493953,0.0287123083670759,1.37794580709815,1.37764663489867,88.806039287338,4.08937066858799E-05,0.0389413145032455,0.0389412930312468,89.9398315834408,0.0667383703811085,2.35479560464444,2.3538496828752,88.3759358817421
0.118850222743702,0.028725175187741,1.39387823607334,1.39358221907046,88.8191595367735,4.10175792040914E-05,0.0393922198740596,0.0393921985190526,89.94034013299,0.0667479382626437,2.38202787867955,2.38109250713707,88.3942774767489
0.120226443461741,0.0287379603968294,1.40999514095966,1.40970224769704,88.8321393345245,4.11439921090978E-05,0.0398483456599716,0.0398483244190831,89.9408412700706,0.0667574189748605,2.40957573470951,2.40865079833351,88.4124143566967
0.121618600064637,0.028750661356259,1.42629866124118,1.4260088606071,88.844980244773,4.12729734224093E-05,0.0403097522863665,0.0403097311567554,89.9413350997186,0.0667668113305474,2.4374428290322,2.4365282140179,88.4303488026991
0.123026877081238,0.0287632755052902,1.44279096123099,1.44250422245207,88.8576838091762,4.14045504558031E-05,0.0407765008781996,0.0407764798570575,89.9418217269673,0.0667761142139968,2.46563286035247,2.46472845413453,88.4480830685875
0.124451461177138,0.0287758003620985,1.45947423035507,1.45919052299007,88.8702515472564,4.15387497534552E-05,0.0412486532681266,0.0412486323526781,89.9423012568697,0.0667853265807713,2.49414957027178,2.49325526150862,88.4656193813015
0.125892541179417,0.0287882335251145,1.47635068343943,1.47606997737322,88.8826849567937,4.16755970317794E-05,0.0417262720047308,0.0417262511922338,89.942773794521,0.0667944474574097,2.5229967437838,2.52211242234214,88.4829599412753
0.127350308101666,0.028800572674347,1.49342256100062,1.49314482643824,88.8949855142132,4.18151171169211E-05,0.0422094203608468,0.042209399648593,89.9432394450802,0.0668034759409743,2.55217820977579,2.55130376671547,88.5001069228198
0.128824955169313,0.0288128155724184,1.5106921295396,1.5104173370005,88.9071546749771,4.19573338798776E-05,0.0426981623419837,0.0426981417272992,89.9436983137924,0.066812411198604,2.58169784153594,2.58083316909505,88.5170624744984
0.13031667784523,0.0288249600655817,1.52816168183906,1.52788980215146,88.9191938739695,4.21022701691438E-05,0.0431925626948486,0.043192542175094,89.9441505060105,0.0668212524669004,2.61155955726685,2.61070454884703,88.533828719499
0.131825673855641,0.0288370040844931,1.5458335372643,1.54556454155965,88.9311045258839,4.22499477408567E-05,0.043692686915971,0.0436926664885422,89.9445961272167,0.0668299990512407,2.64176732060496,2.64092187075709,88.5504077560018
0.133352143216332,0.0288489456448944,1.56371004206754,1.56344390177519,88.9428880256066,4.24003871863816E-05,0.0441986012604301,0.0441985809227588,89.9450352830443,0.0668386503250839,2.67232514114628,2.67148914555632,88.5668016575397
0.134896288259165,0.0288607828481804,1.58179356969588,1.58153025653783,88.9545457485955,4.25536078572785E-05,0.0447103727506868,0.0447103525002411,89.9454680792985,0.0668472057291094,2.70323707497834,2.70241043045346,88.5830124733552
0.136458313658892,0.0288725138817218,1.60008652110292,1.5998260070887,88.9660790512615,4.27096277875896E-05,0.0452280691855201,0.045228049019805,89.9458946219778,0.0668556647703463,2.73450722521844,2.73368982967343,88.5990422287521
0.138038426460288,0.0288841370191737,1.61859132506401,1.61833358248574,88.9774892713408,4.28684636134367E-05,0.045751759149071,0.0457517390656293,89.9463150172947,0.0668640270212182,2.7661397425584,2.76533149500228,88.6148929254409
0.139636836105594,0.0288956506205855,1.63731043849528,1.63705543992279,88.9887777282663,4.30301304898392E-05,0.0462815120199952,0.0462814920164079,89.946729371696,0.0668722921185368,2.7981388258157,2.79733962633858,88.6305665418789
0.141253754462275,0.0289070531323734,1.65624634677641,1.65599406505259,88.9999457235359,4.31946420047272E-05,0.046817397980724,0.0468173780546113,89.9471377918828,0.0668804597624006,2.83050872249127,2.82971847225146,88.6460650336065
0.14288939585111,0.0289183430872224,1.6754015640773,1.67515197231348,89.0109945410742,4.33620100901235E-05,0.0473594880268378,0.0473594681758598,89.9475403848309,0.0668885297150961,2.86325372933387,2.8624723305452,88.6613903335758
0.144543977074593,0.0289295191037863,1.69477863368855,1.69453170526008,89.0219254475917,4.35322449304435E-05,0.0479078539765516,0.0479078341984089,89.9479372578096,0.0668965017999208,2.89637819291126,2.89560554883065,88.6765443524747
0.146217717445672,0.028940579886335,1.71438012835595,1.71413583689788,89.0327396929387,4.37053548678752E-05,0.0484625684803143,0.0484625487727494,89.9483285184006,0.0669043758999425,2.92988651018813,2.92912252510335,88.6915289790463
0.147910838816821,0.0289515242242453,1.7342086506189,1.73396697002178,89.0434385104538,4.38813463048442E-05,0.0490237050305248,0.0490236853913224,89.948714274517,0.0669121519567682,2.96378312911094,2.96302770832862,88.7063460804012
0.149623565609443,0.0289623509914105,1.75426683315292,1.75402773755874,89.054023117307,4.40602236035081E-05,0.0495913379713639,0.0495913183983521,89.9490946344205,0.0669198299692062,2.99807254919978,2.9973255990336,88.720997502326
0.151356124843621,0.0289730591455288,1.77455733911617,1.7743208029144,89.064494714838,4.42419889822734E-05,0.0501655425087461,0.0501655229997976,89.9494697067394,0.0669274099919712,3.03275932214719,3.03202074990631,88.7354850695846
0.153108746168203,0.0289836477272686,1.79508286250021,1.794848860324,89.0748544888889,4.44266424093488E-05,0.0507463947203913,0.0507463752734242,89.9498396004845,0.0669348921343137,3.06784805242426,3.06711776640192,88.7498105862153
0.154881661891248,0.0289941158593946,1.81584612848488,1.81561463520733,89.0851036101294,4.46141814932971E-05,0.051333971566019,0.051333952178998,89.9502044250657,0.066942276558627,3.10334339789384,3.10262130735615,88.7639758358217
0.156675107010815,0.0290044627457256,1.83684989379745,1.83662088452803,89.0952432343788,4.4804601370608E-05,0.0519283508976654,0.0519283315686029,89.9505642903069,0.0669495634790431,3.13925007043113,3.13853608560613,88.7779825818592
0.158489319246111,0.0290146876700828,1.85809694707608,1.85787039715715,89.1052745029185,4.49978945903011E-05,0.0525296114701268,0.0525295921970841,89.9509193064606,0.0669567531599952,3.17557283655169,3.17486686861847,88.7918325679149
0.160324539069004,0.0290247899950683,1.8795901092376,1.87936599424102,89.1151985428021,4.51940509955865E-05,0.0531378329515295,0.0531378137326181,89.9512695842209,0.0669638459148238,3.21231651804689,3.211618479125,88.8055275179822
0.162181009735893,0.0290347691608819,1.9013322338497,1.90111052957361,89.1250164671539,4.53930576025912E-05,0.0537530959340292,0.0537530767674118,89.9516152347366,0.0669708421042607,3.24948599262698,3.248795795766,88.819069136732
0.164058977319954,0.0290446246839484,1.92332620750762,1.92310688997325,89.1347293754661,4.55948984761936E-05,0.0543754819446399,0.0543754628285323,89.9519563696225,0.066977742135051,3.28708619457185,3.28640375374106,88.8324591097755
0.165958690743756,0.0290543561555434,1.94557495021525,1.9453579956639,89.1443383538863,4.57995546030473E-05,0.0550050734561967,0.0550050543888686,89.9522931009694,0.0669845464583855,3.32512211538949,3.32444734546782,88.8456991039255
0.167880401812256,0.0290639632403374,1.96808141577095,1.96786680066099,89.1538444754993,4.60070037617801E-05,0.0556419538984516,0.0556419348782285,89.9526255413539,0.0669912555685494,3.36359880448241,3.36293162124847,88.8587907674493
0.169824365246174,0.029073445674907,1.99084859215777,1.99063629316185,89.1632488006013,4.62172203905381E-05,0.0562862076693061,0.0562861886945705,89.9529538038461,0.0669978700014028,3.40252136982192,3.40186168994422,88.8717357303183
0.171790838715759,0.02908280326617,2.01387950193858,2.01366949594082,89.1725523769683,4.64301754518187E-05,0.0569379201461815,0.0569379012153746,89.9532780020162,0.0670043903329093,3.4418949786305,3.44124271965783,88.8845356044531
0.173780082874938,0.0290920358897555,2.03717720265574,2.03696946674909,89.1817562401176,4.66458362948476E-05,0.0575971776975294,0.0575971588091525,89.9535982499396,0.0670108171777323,3.48172485807233,3.48107993842428,88.8971919839622
0.175792361395869,0.0291011434883758,2.06074478723566,2.06053929871929,89.1908614135622,4.68641665154604E-05,0.0582640676944833,0.0582640488470997,89.9539146622007,0.0670171511877643,3.52201629595203,3.52137863490968,88.9097064453768
0.177827941003892,0.0291101260701619,2.08458538439811,2.08438212077498,89.1998689090575,4.70851258136901E-05,0.0589386785226551,0.0589386597148919,89.9542273538948,0.0670233930507155,3.56277464142176,3.56214415911848,88.922080547881
0.179887091512879,0.0291189837068883,2.10870215907055,2.10850109804493,89.2087797268437,4.73086698491682E-05,0.0596210995940768,0.059621080824626,89.9545364406287,0.0670295434886996,3.60400530569675,3.60338192310918,88.9343158335372
0.181970085860998,0.0291277165323042,2.13309831280728,2.13289943228247,89.2175948558778,4.75347500944891E-05,0.0603114213592894,0.0603114026269103,89.9548420385192,0.0670356032568176,3.64571376277941,3.64509740171853,88.9464138275068
0.184077200146896,0.0291363247402852,2.15777708421366,2.15758036228972,89.2263152740635,4.77633136867074E-05,0.0610097353195829,0.0610097166231038,89.9551442641896,0.067041573141839,3.68790555019203,3.6872961332944,88.9583760382664
0.186208713666287,0.0291448085831127,2.18274174937541,2.18254716434699,89.2349419484695,4.79943032771284E-05,0.0617161340393877,0.0617161153777076,89.9554432347648,0.0670474539607702,3.73058626971827,3.72998372043738,88.9702039578204
0.18836490894898,0.0291531683696325,2.207995622293,2.20780315264723,89.243475835545,4.82276568796317E-05,0.0624307111588197,0.0624306925309105,89.9557390678634,0.0670532465595819,3.77376158815352,3.77316583075125,88.9818990619087
0.190546071796325,0.0291614044634697,2.23354205532123,2.2333516797357,89.2519178813265,4.84633077176678E-05,0.0631535614063824,0.0631535428112906,89.9560318815889,0.0670589518118874,3.81743723806414,3.8168481976024,88.9934628102096
0.192752491319094,0.0291695172811897,2.25938443961407,2.25919613695486,89.2602690216398,4.87011840702417E-05,0.0638847806118264,0.0638847620486753,89.9563217945173,0.0670645706176554,3.86161901855593,3.86103662088833,89.0048966465404
0.194984459975805,0.0291775072904895,2.28552620557477,2.28533995489453,89.2685301822939,4.89412091170807E-05,0.0646244657191706,0.0646244471871621,89.956608925683,0.0670701039019446,3.90631279605159,3.90573696781529,89.0162019990527
0.197242273611485,0.0291853750083828,2.31197082331139,2.3117866038475,89.2767022792699,4.91833007832959E-05,0.0653727147998851,0.0653726962983021,89.9568933945626,0.067075552613719,3.95152450507762,3.95095517368528,89.0273802804239
0.199526231496888,0.0291931209993727,2.33872180309766,2.33853959427047,89.2847862189037,4.94273715837497E-05,0.0661296270662401,0.0661296085944483,89.9571753210551,0.0670809177246232,3.9972601490606,3.99669724269242,89.0384328880456
0.201836636368156,0.0292007458736661,2.36578269583942,2.36560247725049,89.2927828980619,4.96733284675558E-05,0.0668953028848214,0.0668952844422716,89.9574548254605,0.0670862002278199,4.04352580113295,4.04296924872882,89.0493612042076
0.204173794466953,0.0292082502853781,2.39315709354655,2.392978844977,89.3006932043122,4.99210726629468E-05,0.0676698437902159,0.0676698253764462,89.9577320284548,0.067091401136881,4.09032760494835,4.0897773362001,89.0601665962791
0.206538015581053,0.0292156349307323,2.42084862981056,2.42067233121942,89.3085180160889,5.01704995229235E-05,0.0684533524988691,0.0684533341135068,89.9580070510626,0.0670965214846761,4.13767177550694,4.13712772085072,89.0708504168855
0.208929613085404,0.0292229005463322,2.44886098028776,2.44868661181042,89.3162582028513,5.0421498372011E-05,0.0692459329231166,0.0692459145658808,89.9582800146265,0.0671015623223221,4.1855645999904,4.18502669059908,89.0814140040826
0.211348903983665,0.029230047907415,2.47719786318831,2.47702540513497,89.3239146252368,5.06739523545521E-05,0.0700476901853928,0.0700476718560961,89.9585510407735,0.0671065247181512,4.23401243860697,4.23348060638275,89.091858681527
0.213796208950223,0.029237077826114,2.50586303977094,2.50569247262513,89.3314881352104,5.09277382849991E-05,0.0708587306326182,0.0708587123311694,89.9588202513785,0.0671114097567127,4.28302172544671,4.28249590301369,89.1021857586439
0.216271852372702,0.0292439911498046,2.53486031484364,2.53469161926078,89.3389795762065,5.11827265005172E-05,0.0716791618507689,0.0716791435771747,89.9590877685238,0.0671162185378355,4.33259896934689,4.33207909004382,89.112396530791
0.218776162394955,0.0292507887594121,2.56419353727024,2.56402669407621,89.3463897832674,5.14387807165452E-05,0.072509092679629,0.0725090744339967,89.9593537144564,0.0671209521756993,4.38275075476783,4.38223675264094,89.1224922794198
0.221309470960564,0.0292574715678073,2.59386660048298,2.5937015906728,89.3537195831758,5.16957578856703E-05,0.0733486332277311,0.0733486150102702,89.9596182115405,0.0671256117979789,4.43348374267925,4.4329755524751,89.132474272234
0.223872113856834,0.0292640405182092,2.62388344300125,2.62372024773767,89.3609697945829,5.19535080603923E-05,0.0741978948874841,0.074197876698509,89.9598813822075,0.0671301985449576,4.4848046714572,4.48430222861569,89.1423437633454
0.226464430759306,0.0292704965825905,2.65424804895632,2.65408664956859,89.3681412281325,5.22118742602908E-05,0.0750569903504942,0.0750569721904259,89.9601433489022,0.0671347135687749,4.53672035779186,4.53622359843925,89.1521019934256
0.229086765276777,0.0292768407602125,2.68496444862246,2.68480482660502,89.3752346865788,5.24706923442578E-05,0.0759260336230787,0.0759260154924472,89.9604042340249,0.0671391580326291,4.58923769760617,4.58874655854823,89.1617501898573
0.231739464996848,0.0292830740760703,2.71603671895421,2.71587885596545,89.3822509649025,5.27297908882083E-05,0.0768051400419768,0.0768051219414227,89.9606641598702,0.0671435331100569,4.64236366698551,4.64187808570073,89.1712895668809
0.234422881531992,0.0292891975795025,2.74746898413009,2.74731286199114,89.3891908504199,5.29889910690685E-05,0.0776944262902601,0.0776944082205372,89.9609232485617,0.0671478399842661,4.69610532311863,4.69562523775148,89.1807213257394
0.237137370566166,0.0292952123427568,2.7792654161027,2.77911101679625,89.3960551228898,5.32481065556003E-05,0.0785940104134446,0.0785939923754213,89.961181621983,0.0671520798474474,4.75046980524984,4.74999515460412,89.1900466548217
0.239883291901949,0.0293011194596466,2.81143023515535,2.81127754082447,89.402844554616,5.35069434067248E-05,0.0795040118358074,0.0795039938304688,89.9614394017045,0.067156253900223,4.80546433564272,4.80499505917501,89.1992667298016
0.242661009508242,0.0293069200441987,2.84396771046531,2.8438167034123,89.4095599105461,5.37652999780373E-05,0.0804245513769103,0.0804245334053596,89.9616967089065,0.0671603633510134,4.86109622055543,4.86063225836853,89.2083827137767
0.245470891568503,0.0293126152294424,2.87688216067362,2.87673282335891,89.4162019483656,5.40229668373104E-05,0.0813557512683335,0.0813557333317942,89.9619536642982,0.0671644094155595,4.91737285122775,4.9169141440643,89.2173957574031
0.248313310529557,0.0293182061661051,2.91017795446175,2.91003026950278,89.4227714185911,5.42797266896032E-05,0.0822977351706218,0.0822977172704387,89.9622103880323,0.0671683933163993,4.97430170488015,4.97384819411618,89.2263069990291
0.251188643150958,0.0293236940214986,2.94385951113501,2.94371346130512,89.4292690646569,5.45353543128417E-05,0.0832506281904459,0.083250610328087,89.9624669996159,0.0671723162824249,5.03189034572481,5.03144197336348,89.2351175648271
0.254097270554931,0.0293290799783611,2.97793130121286,2.97778686944028,89.435695623001,5.47896165046427E-05,0.084214556897982,0.0842145390750396,89.9627236178168,0.0671761795484717,5.09014642598894,5.08970313465425,89.243828568922
0.257039578276886,0.0293343652337698,3.01239784702625,3.01225501639299,89.4420518231468,5.50422720411335E-05,0.0851896493445119,0.0851896315627036,89.9629803605666,0.0671799843549425,5.14907768695048,5.14863941988107,89.2524411135191
0.260015956316527,0.0293395509981072,3.04726372332196,3.04712247706279,89.4483383877823,5.52930716487194E-05,0.0861760350802463,0.0861760173414162,89.963237344858,0.0671837319474725,5.20869195998629,5.20825866102937,89.2609562890296
